
T1738 000:428 SEGGER J-Link V4.80g Log File (0001ms, 0281ms total)
T1738 000:428 DLL Compiled: Feb 13 2014 20:50:02 (0001ms, 0281ms total)
T1738 000:428 Logging started @ 2018-06-27 10:37 (0001ms, 0281ms total)
T1738 000:429 JLINK_SetWarnOutHandler(...) (0000ms, 0281ms total)
T1738 000:429 JLINK_OpenEx(...)
Firmware: J-Link V9 compiled Mar  2 2018 17:07:57
Hardware: V9.40
S/N: 59425868
Feature(s): RDI, GDB, FlashDL, FlashBP, JFlash, RDDI  returns O.K. (0277ms, 0558ms total)
T1738 000:706 JLINK_SetErrorOutHandler(...) (0000ms, 0558ms total)
T1738 000:706 JLINK_ExecCommand("ProjectFile = "C:\Users\Administrator\Desktop\ICÑéÖ¤2.0\stm32f407 spi\src\test_uart\project\JLinkSettings.ini"", ...)Device "CORTEX-M0" selected (0 KB flash, 0 KB RAM).  returns 0x00 (0002ms, 0560ms total)
T1738 000:708 JLINK_ExecCommand("Device = ARMCM0", ...)Device "CORTEX-M0" selected (0 KB flash, 0 KB RAM).  returns 0x00 (0000ms, 0561ms total)
T1738 000:709 JLINK_ExecCommand("DisableConnectionTimeout", ...)  returns 0x01 (0000ms, 0561ms total)
T1738 000:709 JLINK_GetHardwareVersion()  returns 0x16F30 (0000ms, 0561ms total)
T1738 000:709 JLINK_GetDLLVersion()  returns 48007 (0000ms, 0561ms total)
T1738 000:709 JLINK_GetFirmwareString(...) (0000ms, 0561ms total)
T1738 000:710 JLINK_GetDLLVersion()  returns 48007 (0000ms, 0561ms total)
T1738 000:710 JLINK_GetCompileDateTime() (0000ms, 0561ms total)
T1738 000:710 JLINK_GetFirmwareString(...) (0000ms, 0561ms total)
T1738 000:711 JLINK_GetHardwareVersion()  returns 0x16F30 (0000ms, 0561ms total)
T1738 000:713 JLINK_TIF_Select(JLINKARM_TIF_JTAG)  returns 0x00 (0005ms, 0566ms total)
T1738 000:718 JLINK_SetSpeed(2000) (0001ms, 0567ms total)
T1738 000:719 JLINK_GetIdData(...) >0x2F8 JTAG>TotalIRLen = 4, IRPrint = 0x01 >0x30 JTAG> >0x210 JTAG> >0x70 JTAG> >0x40 JTAG> >0x40 JTAG> >0x40 JTAG> >0x48 JTAG> >0x78 JTAG> >0x40 JTAG> >0x30 JTAG> >0x40 JTAG> >0x40 JTAG> >0x30 JTAG> >0x40 JTAG> >0x48 JTAG>Found Cortex-M0 r0p0, Little endian. -- CPU_WriteMem(4 bytes @ 0xE0002000) -- CPU_ReadMem(4 bytes @ 0xE000EDF0) -- CPU_WriteMem(4 bytes @ 0xE000EDF0) -- CPU_ReadMem(4 bytes @ 0xE0002000)FPUnit: 4 code (BP) slots and 0 literal slots
 -- CPU_ReadMem(4 bytes @ 0xE000EDFC) -- CPU_WriteMem(4 bytes @ 0xE000EDFC) -- CPU_ReadMem(4 bytes @ 0xE0001000) -- CPU_WriteMem(4 bytes @ 0xE0001000) -- CPU_ReadMem(4 bytes @ 0xE00FF018) ScanLen=4 NumDevices=1 aId[0]=0x0BA01477 aIrRead[0]=0 aScanLen[0]=0 aScanRead[0]=0 (0030ms, 0597ms total)
T1738 000:749 JLINK_JTAG_GetDeviceID(DeviceIndex = 0)  returns 0xBA01477 (0000ms, 0597ms total)
T1738 000:749 JLINK_JTAG_GetDeviceInfo(DeviceIndex = 0)  returns 0x00 (0001ms, 0598ms total)
T1738 000:750 JLINK_GetDeviceFamily()  returns 6 (0000ms, 0598ms total)
T1738 000:750 JLINK_ReadMem (0xE00FFFF0, 0x0010 Bytes, ...) -- CPU is running -- CPU_ReadMem(16 bytes @ 0xE00FFFF0) -- Data:  0D 00 00 00 10 00 00 00 05 00 00 00 B1 00 00 00  returns 0x00 (0000ms, 0598ms total)
T1738 000:750 JLINK_ReadMem (0xE00FFFD0, 0x0020 Bytes, ...) -- CPU is running -- CPU_ReadMem(32 bytes @ 0xE00FFFD0) -- Data:  04 00 00 00 00 00 00 00 00 00 00 00 00 00 00 00 ...  returns 0x00 (0001ms, 0599ms total)
T1738 000:751 JLINK_ReadMem (0xE00FF000, 0x0018 Bytes, ...) -- CPU is running -- CPU_ReadMem(24 bytes @ 0xE00FF000) -- Data:  03 F0 F0 FF 03 20 F0 FF 03 30 F0 FF 00 00 00 00 ...  returns 0x00 (0001ms, 0600ms total)
T1738 000:752 JLINK_ReadMemU32(0xE000ED00, 0x0001 Items, ...) -- CPU is running -- CPU_ReadMem(4 bytes @ 0xE000ED00) -- Data:  00 C2 0C 41  returns 0x01 (0001ms, 0601ms total)
T1738 000:753 JLINK_SetResetType(JLINKARM_RESET_TYPE_NORMAL)  returns JLINKARM_RESET_TYPE_NORMAL (0000ms, 0601ms total)
T1738 000:753 JLINK_Reset() -- CPU is running -- CPU_WriteMem(4 bytes @ 0xE000EDF0) -- CPU is running -- CPU_WriteMem(4 bytes @ 0xE000EDFC) -- CPU is running -- CPU_WriteMem(4 bytes @ 0xE000ED0C) -- CPU is running -- CPU_ReadMem(4 bytes @ 0xE000EDF0) -- CPU is running -- CPU_ReadMem(4 bytes @ 0xE000EDF0) -- CPU is running -- CPU_WriteMem(4 bytes @ 0xE000EDF0) -- CPU is running -- CPU_WriteMem(4 bytes @ 0xE000EDFC) -- CPU is running -- CPU_ReadMem(4 bytes @ 0xE000EDF0) >0x78 JTAG> >0x40 JTAG> >0x30 JTAG>
 >0x40 JTAG> >0x48 JTAG> >0x40 JTAG> -- CPU_WriteMem(4 bytes @ 0xE000EDFC) -- CPU_WriteMem(4 bytes @ 0xE0001028) -- CPU_WriteMem(4 bytes @ 0xE0001038) -- CPU_WriteMem(4 bytes @ 0xE0001048) -- CPU_WriteMem(4 bytes @ 0xE0001058) -- CPU_WriteMem(4 bytes @ 0xE0002000) -- CPU_ReadMem(4 bytes @ 0xE000EDFC) -- CPU_ReadMem(4 bytes @ 0xE0001000) -- CPU_WriteMem(4 bytes @ 0xE0001000) (0041ms, 0642ms total)
T1738 000:794 JLINK_ReadReg(R15 (PC))  returns 0x00000158 (0000ms, 0642ms total)
T1738 000:794 JLINK_ReadReg(XPSR)  returns 0xC1000000 (0000ms, 0642ms total)
T1738 000:794 JLINK_Halt()  returns 0x00 (0000ms, 0642ms total)
T1738 000:794 JLINK_IsHalted()  returns TRUE (0000ms, 0642ms total)
T1738 000:794 JLINK_ReadMemU32(0xE000EDF0, 0x0001 Items, ...) -- CPU_ReadMem(4 bytes @ 0xE000EDF0) -- Data:  03 00 03 00  returns 0x01 (0001ms, 0643ms total)
T1738 000:795 JLINK_WriteU32(0xE000EDF0, 0xA05F0003) -- CPU_WriteMem(4 bytes @ 0xE000EDF0)  returns 0x00 (0001ms, 0644ms total)
T1738 000:796 JLINK_WriteU32(0xE000EDFC, 0x01000000) -- CPU_WriteMem(4 bytes @ 0xE000EDFC)  returns 0x00 (0001ms, 0645ms total)
T1738 000:798 JLINK_GetHWStatus(...)  returns 0x00 (0002ms, 0647ms total)
T1738 000:801 JLINK_GetNumBPUnits(Type = 0xFFFFFF00)  returns 0x04 (0000ms, 0647ms total)
T1738 000:801 JLINK_GetNumBPUnits(Type = 0xF0)  returns 0x2000 (0000ms, 0647ms total)
T1738 000:801 JLINK_GetNumWPUnits()  returns 0x02 (0000ms, 0647ms total)
T1738 000:802 JLINK_GetSpeed()  returns 0x7D0 (0000ms, 0647ms total)
T1738 000:802 JLINK_ReadMemU32(0xE000E004, 0x0001 Items, ...) -- CPU_ReadMem(4 bytes @ 0xE000E004) -- Data:  00 00 00 00  returns 0x01 (0001ms, 0648ms total)
T1738 000:803 JLINK_ReadReg(R15 (PC))  returns 0x00000158 (0001ms, 0649ms total)
T1738 000:804 JLINK_ReadReg(XPSR)  returns 0xC1000000 (0000ms, 0649ms total)
T1738 000:819 JLINK_WriteMem(0x00000000, 0x0400 Bytes, ...) -- Data:  28 AC 00 20 59 01 00 00 61 01 00 00 63 01 00 00 ... -- CPU_WriteMem(1024 bytes @ 0x00000000)  returns 0x400 (0007ms, 0656ms total)
T1738 000:826 JLINK_WriteMem(0x00000400, 0x0400 Bytes, ...) -- Data:  E0 E0 01 73 05 21 02 A8 FF F7 63 FF 00 20 03 46 ... -- CPU_WriteMem(1024 bytes @ 0x00000400)  returns 0x400 (0007ms, 0663ms total)
T1738 000:833 JLINK_WriteMem(0x00000800, 0x0400 Bytes, ...) -- Data:  84 48 6C 30 FF F7 E0 FC 90 49 F6 31 81 48 6C 30 ... -- CPU_WriteMem(1024 bytes @ 0x00000800)  returns 0x400 (0006ms, 0669ms total)
T1738 000:839 JLINK_WriteMem(0x00000C00, 0x0400 Bytes, ...) -- Data:  A5 48 FF F7 E1 FA BB 49 2C 39 A3 48 FF F7 DC FA ... -- CPU_WriteMem(1024 bytes @ 0x00000C00)  returns 0x400 (0007ms, 0676ms total)
T1738 000:847 JLINK_WriteMem(0x00001000, 0x0400 Bytes, ...) -- Data:  FF F7 E2 F8 01 21 3A 48 7E 30 FF F7 DD F8 00 21 ... -- CPU_WriteMem(1024 bytes @ 0x00001000)  returns 0x400 (0007ms, 0683ms total)
T1738 000:854 JLINK_WriteMem(0x00001400, 0x020C Bytes, ...) -- Data:  0A 20 F5 E7 49 48 80 68 20 21 08 40 00 28 E2 D0 ... -- CPU_WriteMem(524 bytes @ 0x00001400)  returns 0x20C (0004ms, 0687ms total)
T1738 000:912 JLINK_SetResetType(JLINKARM_RESET_TYPE_NORMAL)  returns JLINKARM_RESET_TYPE_NORMAL (0000ms, 0687ms total)
T1738 000:912 JLINK_Reset() -- CPU_ReadMem(4 bytes @ 0x00001400) -- CPU_WriteMem(4 bytes @ 0x00001400) -- CPU_WriteMem(4 bytes @ 0xE000EDF0) -- CPU_WriteMem(4 bytes @ 0xE000EDFC) -- CPU_WriteMem(4 bytes @ 0xE000ED0C) -- CPU_ReadMem(4 bytes @ 0xE000EDF0) -- CPU_ReadMem(4 bytes @ 0xE000EDF0) -- CPU_WriteMem(4 bytes @ 0xE000EDF0) -- CPU_WriteMem(4 bytes @ 0xE000EDFC) -- CPU is running -- CPU_ReadMem(4 bytes @ 0xE000EDF0) >0x78 JTAG> >0x40 JTAG> >0x30 JTAG> >0x40 JTAG> >0x48 JTAG> >0x40 JTAG>
 -- CPU_WriteMem(4 bytes @ 0xE000EDFC) -- CPU_WriteMem(4 bytes @ 0xE0001028) -- CPU_WriteMem(4 bytes @ 0xE0001038) -- CPU_WriteMem(4 bytes @ 0xE0001048) -- CPU_WriteMem(4 bytes @ 0xE0001058) -- CPU_WriteMem(4 bytes @ 0xE0002000) -- CPU_ReadMem(4 bytes @ 0xE000EDFC) -- CPU_ReadMem(4 bytes @ 0xE0001000) -- CPU_WriteMem(4 bytes @ 0xE0001000) (0043ms, 0730ms total)
T1738 000:956 JLINK_ReadReg(R15 (PC))  returns 0x00000158 (0000ms, 0730ms total)
T1738 000:956 JLINK_ReadReg(XPSR)  returns 0xC1000000 (0000ms, 0730ms total)
T1738 000:958 JLINK_ReadMem (0x00000156, 0x0002 Bytes, ...) -- CPU_ReadMem(2 bytes @ 0x00000156) -- Data:  70 47  returns 0x00 (0001ms, 0731ms total)
T1738 000:959 JLINK_ReadMem (0x00000158, 0x003C Bytes, ...) -- CPU_ReadMem(60 bytes @ 0x00000158) -- Data:  07 48 80 47 07 48 00 47 FE E7 FE E7 FE E7 FE E7 ...  returns 0x00 (0002ms, 0733ms total)
T1738 000:961 JLINK_ReadMem (0x000000B0, 0x003C Bytes, ...) -- CPU_ReadMem(60 bytes @ 0x000000B0) -- Data:  00 F0 02 F8 00 F0 40 F8 0C A0 30 C8 08 38 24 18 ...  returns 0x00 (0002ms, 0735ms total)
T1738 000:963 JLINK_ReadMem (0x000000EC, 0x003C Bytes, ...) -- CPU_ReadMem(60 bytes @ 0x000000EC) -- Data:  F4 14 00 00 14 15 00 00 10 3A 02 D3 78 C8 78 C1 ...  returns 0x00 (0002ms, 0737ms total)
T1738 000:965 JLINK_ReadMem (0x00000128, 0x003C Bytes, ...) -- CPU_ReadMem(60 bytes @ 0x00000128) -- Data:  0B 60 70 47 1F B5 C0 46 C0 46 1F BD 10 B5 10 BD ...  returns 0x00 (0002ms, 0739ms total)
T1738 001:386 JLINK_ReadMem (0x400093EC, 0x0014 Bytes, ...) -- CPU_ReadMem(20 bytes @ 0x400093EC) -- Data:  00 00 00 00 00 00 00 00 00 00 00 00 00 00 00 00 ...  returns 0x00 (0003ms, 0742ms total)
T1738 001:389 JLINK_ReadMem (0x40009400, 0x010C Bytes, ...) -- CPU_ReadMem(268 bytes @ 0x40009400) -- Data:  00 00 00 00 00 00 00 00 00 00 00 00 00 00 00 00 ...  returns 0x00 (0002ms, 0744ms total)
T1738 001:391 JLINK_ReadMem (0x400093EC, 0x0014 Bytes, ...) -- CPU_ReadMem(20 bytes @ 0x400093EC) -- Data:  00 00 00 00 00 00 00 00 00 00 00 00 00 00 00 00 ...  returns 0x00 (0001ms, 0745ms total)
T1738 001:392 JLINK_ReadMem (0x40009400, 0x010C Bytes, ...) -- CPU_ReadMem(268 bytes @ 0x40009400) -- Data:  00 00 00 00 00 00 00 00 00 00 00 00 00 00 00 00 ...  returns 0x00 (0003ms, 0748ms total)
T1738 001:400 JLINK_ReadMem (0x400093EC, 0x0014 Bytes, ...) -- CPU_ReadMem(20 bytes @ 0x400093EC) -- Data:  00 00 00 00 00 00 00 00 00 00 00 00 00 00 00 00 ...  returns 0x00 (0001ms, 0749ms total)
T1738 001:401 JLINK_ReadMem (0x40009400, 0x010C Bytes, ...) -- CPU_ReadMem(268 bytes @ 0x40009400) -- Data:  00 00 00 00 00 00 00 00 00 00 00 00 00 00 00 00 ...  returns 0x00 (0003ms, 0752ms total)
T1738 001:404 JLINK_ReadMem (0x400093EC, 0x0014 Bytes, ...) -- CPU_ReadMem(20 bytes @ 0x400093EC) -- Data:  00 00 00 00 00 00 00 00 00 00 00 00 00 00 00 00 ...  returns 0x00 (0001ms, 0753ms total)
T1738 001:405 JLINK_ReadMem (0x40009400, 0x010C Bytes, ...) -- CPU_ReadMem(268 bytes @ 0x40009400) -- Data:  00 00 00 00 00 00 00 00 00 00 00 00 00 00 00 00 ...  returns 0x00 (0003ms, 0756ms total)
T1738 001:409 JLINK_ReadMem (0x400093EC, 0x0014 Bytes, ...) -- CPU_ReadMem(20 bytes @ 0x400093EC) -- Data:  00 00 00 00 00 00 00 00 00 00 00 00 00 00 00 00 ...  returns 0x00 (0002ms, 0758ms total)
T1738 001:411 JLINK_ReadMem (0x40009400, 0x0400 Bytes, ...) -- CPU_ReadMem(1024 bytes @ 0x40009400) -- Data:  00 00 00 00 00 00 00 00 00 00 00 00 00 00 00 00 ...  returns 0x00 (0006ms, 0764ms total)
T1738 001:417 JLINK_ReadMem (0x40009800, 0x0038 Bytes, ...) -- CPU_ReadMem(56 bytes @ 0x40009800) -- Data:  00 00 00 00 00 00 00 00 00 00 00 00 00 00 00 00 ...  returns 0x00 (0002ms, 0766ms total)
T1738 001:419 JLINK_ReadMem (0x400093EC, 0x0014 Bytes, ...) -- CPU_ReadMem(20 bytes @ 0x400093EC) -- Data:  00 00 00 00 00 00 00 00 00 00 00 00 00 00 00 00 ...  returns 0x00 (0001ms, 0767ms total)
T1738 001:420 JLINK_ReadMem (0x40009400, 0x0400 Bytes, ...) -- CPU_ReadMem(1024 bytes @ 0x40009400) -- Data:  00 00 00 00 00 00 00 00 00 00 00 00 00 00 00 00 ...  returns 0x00 (0007ms, 0774ms total)
T1738 001:427 JLINK_ReadMem (0x40009800, 0x0038 Bytes, ...) -- CPU_ReadMem(56 bytes @ 0x40009800) -- Data:  00 00 00 00 00 00 00 00 00 00 00 00 00 00 00 00 ...  returns 0x00 (0002ms, 0776ms total)
T1738 001:431 JLINK_ReadMem (0x400093EC, 0x0014 Bytes, ...) -- CPU_ReadMem(20 bytes @ 0x400093EC) -- Data:  00 00 00 00 00 00 00 00 00 00 00 00 00 00 00 00 ...  returns 0x00 (0001ms, 0777ms total)
T1738 001:432 JLINK_ReadMem (0x40009400, 0x0208 Bytes, ...) -- CPU_ReadMem(520 bytes @ 0x40009400) -- Data:  00 00 00 00 00 00 00 00 00 00 00 00 00 00 00 00 ...  returns 0x00 (0004ms, 0781ms total)
T1738 001:436 JLINK_ReadMem (0x400093EC, 0x0014 Bytes, ...) -- CPU_ReadMem(20 bytes @ 0x400093EC) -- Data:  00 00 00 00 00 00 00 00 00 00 00 00 00 00 00 00 ...  returns 0x00 (0001ms, 0782ms total)
T1738 001:437 JLINK_ReadMem (0x40009400, 0x0208 Bytes, ...) -- CPU_ReadMem(520 bytes @ 0x40009400) -- Data:  00 00 00 00 00 00 00 00 00 00 00 00 00 00 00 00 ...  returns 0x00 (0004ms, 0786ms total)
T1738 001:873 JLINK_ReadMem (0x20008004, 0x0004 Bytes, ...) -- CPU_ReadMem(4 bytes @ 0x20008004) -- Data:  00 00 00 00  returns 0x00 (0001ms, 0787ms total)
T1738 001:885 JLINK_ReadMem (0x400093EC, 0x0014 Bytes, ...) -- CPU_ReadMem(20 bytes @ 0x400093EC) -- Data:  00 00 00 00 00 00 00 00 00 00 00 00 00 00 00 00 ...  returns 0x00 (0002ms, 0789ms total)
T1738 001:887 JLINK_ReadMem (0x40009400, 0x0208 Bytes, ...) -- CPU_ReadMem(520 bytes @ 0x40009400) -- Data:  00 00 00 00 00 00 00 00 00 00 00 00 00 00 00 00 ...  returns 0x00 (0004ms, 0793ms total)
T1738 001:893 JLINK_ReadMem (0x400093EC, 0x0014 Bytes, ...) -- CPU_ReadMem(20 bytes @ 0x400093EC) -- Data:  00 00 00 00 00 00 00 00 00 00 00 00 00 00 00 00 ...  returns 0x00 (0001ms, 0794ms total)
T1738 001:894 JLINK_ReadMem (0x40009400, 0x0208 Bytes, ...) -- CPU_ReadMem(520 bytes @ 0x40009400) -- Data:  00 00 00 00 00 00 00 00 00 00 00 00 00 00 00 00 ...  returns 0x00 (0004ms, 0798ms total)
T29A0 001:910 JLINK_SetBPEx(Addr = 0x0000111C, Type = 0xFFFFFFF2)  returns 0x00000001 (0000ms, 0798ms total)
T29A0 001:910 JLINK_SetBPEx(Addr = 0x00000340, Type = 0xFFFFFFF2)  returns 0x00000002 (0000ms, 0798ms total)
T29A0 001:910 JLINK_SetBPEx(Addr = 0x000012F8, Type = 0xFFFFFFF2)  returns 0x00000003 (0000ms, 0798ms total)
T29A0 001:910 JLINK_SetBPEx(Addr = 0x000012E6, Type = 0xFFFFFFF2)  returns 0x00000004 (0000ms, 0798ms total)
T29A0 001:910 JLINK_SetBPEx(Addr = 0x000012C0, Type = 0xFFFFFFF2) -- CPU_ReadMem(4 bytes @ 0x0000111C) -- CPU_WriteMem(4 bytes @ 0x0000111C) -- CPU_ReadMem(4 bytes @ 0x0000111C) -- CPU_WriteMem(4 bytes @ 0x0000111C) -- CPU_ReadMem(2 bytes @ 0x0000111C) -- BP[0] @ 0x0000111C converted into SoftBP (RAM)  returns 0x00000005 (0006ms, 0804ms total)
T29A0 001:916 JLINK_SetBPEx(Addr = 0x000010A4, Type = 0xFFFFFFF2) -- CPU_ReadMem(4 bytes @ 0x00000340) -- CPU_WriteMem(4 bytes @ 0x00000340) -- CPU_ReadMem(4 bytes @ 0x00000340) -- CPU_WriteMem(4 bytes @ 0x00000340) -- CPU_ReadMem(2 bytes @ 0x00000340) -- BP[1] @ 0x00000340 converted into SoftBP (RAM)  returns 0x00000006 (0005ms, 0809ms total)
T29A0 001:921 JLINK_Go() -- CPU_WriteMem(2 bytes @ 0x00000340) -- CPU_WriteMem(2 bytes @ 0x0000111C) -- CPU_WriteMem(4 bytes @ 0xE0002008) -- CPU_WriteMem(4 bytes @ 0xE000200C) -- CPU_WriteMem(4 bytes @ 0xE0002010) -- CPU_WriteMem(4 bytes @ 0xE0002014) -- CPU_WriteMem(4 bytes @ 0xE0001004) (0009ms, 0818ms total)
T29A0 002:030 JLINK_IsHalted() -- CPU_ReadMem(2 bytes @ 0x0000111C) -- CPU_ReadMem(2 bytes @ 0x00000340)  returns TRUE (0006ms, 0824ms total)
T29A0 002:036 JLINK_Halt()  returns 0x00 (0000ms, 0818ms total)
T29A0 002:036 JLINK_IsHalted()  returns TRUE (0000ms, 0818ms total)
T29A0 002:036 JLINK_IsHalted()  returns TRUE (0000ms, 0818ms total)
T29A0 002:036 JLINK_IsHalted()  returns TRUE (0000ms, 0818ms total)
T29A0 002:036 JLINK_ReadReg(R15 (PC))  returns 0x0000111C (0000ms, 0818ms total)
T29A0 002:036 JLINK_ReadReg(XPSR)  returns 0x01000000 (0000ms, 0818ms total)
T29A0 002:036 JLINK_ClrBPEx(BPHandle = 0x00000001)  returns 0x00 (0000ms, 0818ms total)
T29A0 002:036 JLINK_ClrBPEx(BPHandle = 0x00000002)  returns 0x00 (0000ms, 0818ms total)
T29A0 002:036 JLINK_ClrBPEx(BPHandle = 0x00000003)  returns 0x00 (0000ms, 0818ms total)
T29A0 002:036 JLINK_ClrBPEx(BPHandle = 0x00000004)  returns 0x00 (0000ms, 0818ms total)
T29A0 002:036 JLINK_ClrBPEx(BPHandle = 0x00000005)  returns 0x00 (0000ms, 0818ms total)
T29A0 002:036 JLINK_ClrBPEx(BPHandle = 0x00000006)  returns 0x00 (0000ms, 0818ms total)
T29A0 002:036 JLINK_ReadMemU32(0xE000ED30, 0x0001 Items, ...) -- CPU_ReadMem(4 bytes @ 0xE000ED30) -- Data:  02 00 00 00  returns 0x01 (0002ms, 0820ms total)
T29A0 002:038 JLINK_ReadMemU32(0xE0001028, 0x0001 Items, ...) -- CPU_ReadMem(4 bytes @ 0xE0001028) -- Data:  00 00 00 00  returns 0x01 (0001ms, 0821ms total)
T29A0 002:039 JLINK_ReadMemU32(0xE0001038, 0x0001 Items, ...) -- CPU_ReadMem(4 bytes @ 0xE0001038) -- Data:  00 00 00 00  returns 0x01 (0001ms, 0822ms total)
T29A0 002:040 JLINK_ReadReg(R0)  returns 0x20008C28 (0000ms, 0822ms total)
T29A0 002:040 JLINK_ReadReg(R1)  returns 0x20009C28 (0000ms, 0822ms total)
T29A0 002:040 JLINK_ReadReg(R2)  returns 0x20009C28 (0000ms, 0822ms total)
T29A0 002:040 JLINK_ReadReg(R3)  returns 0x20009C28 (0000ms, 0822ms total)
T29A0 002:040 JLINK_ReadReg(R4)  returns 0x00001600 (0000ms, 0822ms total)
T29A0 002:040 JLINK_ReadReg(R5)  returns 0x20008BC4 (0000ms, 0822ms total)
T29A0 002:040 JLINK_ReadReg(R6)  returns 0x00000000 (0000ms, 0822ms total)
T29A0 002:040 JLINK_ReadReg(R7)  returns 0x00000000 (0000ms, 0822ms total)
T29A0 002:040 JLINK_ReadReg(R8)  returns 0xFFFFFFFF (0000ms, 0822ms total)
T29A0 002:040 JLINK_ReadReg(R9)  returns 0xFFFFFFFF (0000ms, 0822ms total)
T29A0 002:040 JLINK_ReadReg(R10)  returns 0x00001600 (0000ms, 0822ms total)
T29A0 002:040 JLINK_ReadReg(R11)  returns 0x00001600 (0000ms, 0822ms total)
T29A0 002:040 JLINK_ReadReg(R12)  returns 0xFFFFFFFF (0000ms, 0822ms total)
T29A0 002:040 JLINK_ReadReg(R13 (SP))  returns 0x2000AC28 (0000ms, 0822ms total)
T29A0 002:040 JLINK_ReadReg(R14)  returns 0x00000147 (0000ms, 0822ms total)
T29A0 002:040 JLINK_ReadReg(R15 (PC))  returns 0x0000111C (0000ms, 0822ms total)
T29A0 002:040 JLINK_ReadReg(XPSR)  returns 0x01000000 (0000ms, 0822ms total)
T29A0 002:040 JLINK_ReadReg(MSP)  returns 0x2000AC28 (0000ms, 0822ms total)
T29A0 002:040 JLINK_ReadReg(PSP)  returns 0xFFFFFFFC (0000ms, 0822ms total)
T29A0 002:040 JLINK_ReadReg(CFBP)  returns 0x00000000 (0000ms, 0822ms total)
T1738 002:044 JLINK_ReadMem (0x20008004, 0x0004 Bytes, ...) -- CPU_ReadMem(4 bytes @ 0x20008004) -- Data:  00 00 00 00  returns 0x00 (0001ms, 0823ms total)
T1738 002:045 JLINK_ReadMem (0x400093EC, 0x0014 Bytes, ...) -- CPU_ReadMem(20 bytes @ 0x400093EC) -- Data:  00 00 00 00 00 00 00 00 00 00 00 00 00 00 00 00 ...  returns 0x00 (0001ms, 0824ms total)
T1738 002:046 JLINK_ReadMem (0x40009400, 0x0208 Bytes, ...) -- CPU_ReadMem(520 bytes @ 0x40009400) -- Data:  00 00 00 00 00 00 00 00 00 00 00 00 00 00 00 00 ...  returns 0x00 (0005ms, 0829ms total)
T1738 002:059 JLINK_ReadMem (0x0000101C, 0x003C Bytes, ...) -- CPU_ReadMem(128 bytes @ 0x00001000) -- Updating DA cache (128 bytes @ 0x00001000) -- Read from DA cache (60 bytes @ 0x0000101C) -- Data:  80 1C FF F7 D3 F8 09 21 32 48 58 30 FF F7 CE F8 ...  returns 0x00 (0002ms, 0831ms total)
T1738 002:061 JLINK_ReadMem (0x00001058, 0x003C Bytes, ...) -- CPU_ReadMem(64 bytes @ 0x00001080) -- Updating DA cache (64 bytes @ 0x00001080) -- Read from DA cache (60 bytes @ 0x00001058) -- Data:  00 02 FF F7 B5 F8 00 21 22 48 24 30 FF F7 B0 F8 ...  returns 0x00 (0001ms, 0832ms total)
T1738 002:062 JLINK_ReadMem (0x00001094, 0x003C Bytes, ...) -- CPU_ReadMem(64 bytes @ 0x000010C0) -- Updating DA cache (64 bytes @ 0x000010C0) -- Read from DA cache (60 bytes @ 0x00001094) -- Data:  80 B2 1F 49 09 88 48 43 05 46 1E 48 28 40 04 0A ...  returns 0x00 (0002ms, 0834ms total)
T1738 002:064 JLINK_ReadMem (0x000010D0, 0x003C Bytes, ...) -- CPU_ReadMem(64 bytes @ 0x00001100) -- Updating DA cache (64 bytes @ 0x00001100) -- Read from DA cache (60 bytes @ 0x000010D0) -- Data:  7B F8 00 2C 04 D1 11 20 40 01 0E 49 08 80 01 E0 ...  returns 0x00 (0002ms, 0836ms total)
T1738 002:066 JLINK_ReadMem (0x00001116, 0x0002 Bytes, ...) -- Read from DA cache (2 bytes @ 0x00001116) -- Data:  00 20  returns 0x00 (0000ms, 0836ms total)
T1738 002:066 JLINK_ReadMem (0x00001118, 0x003C Bytes, ...) -- CPU_ReadMem(64 bytes @ 0x00001140) -- Updating DA cache (64 bytes @ 0x00001140) -- Read from DA cache (60 bytes @ 0x00001118) -- Merging zombie BP[0]: 0x482B @ 0x0000111C -- Data:  00 FF FF 00 2B 48 40 6A 01 21 08 43 29 49 48 62 ...  returns 0x00 (0002ms, 0838ms total)
T1738 004:042 JLINK_ReadMem (0x400093EC, 0x0014 Bytes, ...) -- CPU_ReadMem(20 bytes @ 0x400093EC) -- Data:  00 00 00 00 00 00 00 00 00 00 00 00 00 00 00 00 ...  returns 0x00 (0001ms, 0839ms total)
T1738 004:043 JLINK_ReadMem (0x40009400, 0x0208 Bytes, ...) -- CPU_ReadMem(520 bytes @ 0x40009400) -- Data:  00 00 00 00 00 00 00 00 00 00 00 00 00 00 00 00 ...  returns 0x00 (0004ms, 0843ms total)
T1738 004:239 JLINK_ReadMem (0x400093EC, 0x0014 Bytes, ...) -- CPU_ReadMem(20 bytes @ 0x400093EC) -- Data:  00 00 00 00 00 00 00 00 00 00 00 00 00 00 00 00 ...  returns 0x00 (0002ms, 0845ms total)
T1738 004:241 JLINK_ReadMem (0x40009400, 0x0208 Bytes, ...) -- CPU_ReadMem(520 bytes @ 0x40009400) -- Data:  00 00 00 00 00 00 00 00 00 00 00 00 00 00 00 00 ...  returns 0x00 (0004ms, 0849ms total)
T1738 008:539 JLINK_ReadMem (0x40009100, 0x021C Bytes, ...) -- CPU_ReadMem(540 bytes @ 0x40009100) -- Data:  00 00 00 00 00 00 00 00 00 00 00 00 00 00 00 00 ...  returns 0x00 (0006ms, 0855ms total)
T29A0 015:244 JLINK_SetBPEx(Addr = 0x00000340, Type = 0xFFFFFFF2)  returns 0x00000007 (0000ms, 0855ms total)
T29A0 015:244 JLINK_SetBPEx(Addr = 0x000012F8, Type = 0xFFFFFFF2)  returns 0x00000008 (0000ms, 0855ms total)
T29A0 015:244 JLINK_SetBPEx(Addr = 0x000012E6, Type = 0xFFFFFFF2)  returns 0x00000009 (0000ms, 0855ms total)
T29A0 015:244 JLINK_SetBPEx(Addr = 0x000012C0, Type = 0xFFFFFFF2)  returns 0x0000000A (0000ms, 0855ms total)
T29A0 015:244 JLINK_SetBPEx(Addr = 0x000010A4, Type = 0xFFFFFFF2)  returns 0x0000000B (0000ms, 0855ms total)
T29A0 015:244 JLINK_Go() -- CPU_ReadMem(2 bytes @ 0x0000111C) -- CPU_WriteMem(2 bytes @ 0x0000111C) (0004ms, 0859ms total)
T29A0 015:348 JLINK_IsHalted()  returns FALSE (0001ms, 0860ms total)
T29A0 015:449 JLINK_IsHalted()  returns FALSE (0001ms, 0860ms total)
T29A0 015:550 JLINK_IsHalted()  returns FALSE (0001ms, 0860ms total)
T29A0 015:651 JLINK_IsHalted()  returns FALSE (0001ms, 0860ms total)
T29A0 015:752 JLINK_IsHalted()  returns FALSE (0001ms, 0860ms total)
T1738 015:854 JLINK_ReadMem (0x40009100, 0x021C Bytes, ...) -- CPU is running -- CPU_ReadMem(540 bytes @ 0x40009100) -- Data:  01 00 00 00 01 00 00 00 01 00 00 00 01 00 00 00 ...  returns 0x00 (0005ms, 0864ms total)
T1738 015:866 JLINK_ReadMem (0x20008004, 0x0004 Bytes, ...) -- CPU is running -- CPU_ReadMem(4 bytes @ 0x20008004) -- Data:  00 00 00 00  returns 0x00 (0002ms, 0866ms total)
T29A0 015:868 JLINK_IsHalted()  returns FALSE (0001ms, 0867ms total)
T29A0 015:969 JLINK_IsHalted()  returns FALSE (0001ms, 0867ms total)
T29A0 016:070 JLINK_IsHalted()  returns FALSE (0001ms, 0867ms total)
T29A0 016:171 JLINK_IsHalted()  returns FALSE (0001ms, 0867ms total)
T29A0 016:272 JLINK_IsHalted() -- CPU_ReadMem(2 bytes @ 0x00000340)  returns TRUE (0006ms, 0872ms total)
T29A0 016:278 JLINK_Halt()  returns 0x00 (0000ms, 0866ms total)
T29A0 016:278 JLINK_IsHalted()  returns TRUE (0000ms, 0866ms total)
T29A0 016:278 JLINK_IsHalted()  returns TRUE (0000ms, 0866ms total)
T29A0 016:278 JLINK_IsHalted()  returns TRUE (0000ms, 0866ms total)
T29A0 016:278 JLINK_ReadReg(R15 (PC))  returns 0x000010A4 (0000ms, 0866ms total)
T29A0 016:278 JLINK_ReadReg(XPSR)  returns 0x41000011 (0000ms, 0866ms total)
T29A0 016:278 JLINK_ClrBPEx(BPHandle = 0x00000007)  returns 0x00 (0000ms, 0866ms total)
T29A0 016:278 JLINK_ClrBPEx(BPHandle = 0x00000008)  returns 0x00 (0000ms, 0866ms total)
T29A0 016:278 JLINK_ClrBPEx(BPHandle = 0x00000009)  returns 0x00 (0000ms, 0866ms total)
T29A0 016:278 JLINK_ClrBPEx(BPHandle = 0x0000000A)  returns 0x00 (0000ms, 0866ms total)
T29A0 016:278 JLINK_ClrBPEx(BPHandle = 0x0000000B)  returns 0x00 (0000ms, 0866ms total)
T29A0 016:278 JLINK_ReadMemU32(0xE000ED30, 0x0001 Items, ...) -- CPU_ReadMem(4 bytes @ 0xE000ED30) -- Data:  02 00 00 00  returns 0x01 (0001ms, 0867ms total)
T29A0 016:279 JLINK_ReadMemU32(0xE0001028, 0x0001 Items, ...) -- CPU_ReadMem(4 bytes @ 0xE0001028) -- Data:  00 00 00 00  returns 0x01 (0001ms, 0868ms total)
T29A0 016:280 JLINK_ReadMemU32(0xE0001038, 0x0001 Items, ...) -- CPU_ReadMem(4 bytes @ 0xE0001038) -- Data:  00 00 00 00  returns 0x01 (0001ms, 0869ms total)
T29A0 016:281 JLINK_ReadReg(R0)  returns 0x00000000 (0000ms, 0869ms total)
T29A0 016:281 JLINK_ReadReg(R1)  returns 0x00000220 (0000ms, 0869ms total)
T29A0 016:281 JLINK_ReadReg(R2)  returns 0x00001388 (0000ms, 0869ms total)
T29A0 016:281 JLINK_ReadReg(R3)  returns 0x00001388 (0000ms, 0869ms total)
T29A0 016:281 JLINK_ReadReg(R4)  returns 0x00000000 (0000ms, 0869ms total)
T29A0 016:281 JLINK_ReadReg(R5)  returns 0x00000000 (0000ms, 0869ms total)
T29A0 016:281 JLINK_ReadReg(R6)  returns 0x00000000 (0000ms, 0869ms total)
T29A0 016:281 JLINK_ReadReg(R7)  returns 0x00000000 (0000ms, 0869ms total)
T29A0 016:281 JLINK_ReadReg(R8)  returns 0xFFFFFFFF (0000ms, 0869ms total)
T29A0 016:281 JLINK_ReadReg(R9)  returns 0xFFFFFFFF (0000ms, 0869ms total)
T29A0 016:281 JLINK_ReadReg(R10)  returns 0x00001600 (0000ms, 0869ms total)
T29A0 016:281 JLINK_ReadReg(R11)  returns 0x00001600 (0000ms, 0869ms total)
T29A0 016:281 JLINK_ReadReg(R12)  returns 0xFFFFFFFF (0000ms, 0869ms total)
T29A0 016:281 JLINK_ReadReg(R13 (SP))  returns 0x2000ABF8 (0000ms, 0869ms total)
T29A0 016:281 JLINK_ReadReg(R14)  returns 0x00001091 (0000ms, 0869ms total)
T29A0 016:281 JLINK_ReadReg(R15 (PC))  returns 0x000010A4 (0000ms, 0869ms total)
T29A0 016:281 JLINK_ReadReg(XPSR)  returns 0x41000011 (0000ms, 0869ms total)
T29A0 016:281 JLINK_ReadReg(MSP)  returns 0x2000ABF8 (0000ms, 0869ms total)
T29A0 016:281 JLINK_ReadReg(PSP)  returns 0xFFFFFFFC (0000ms, 0869ms total)
T29A0 016:281 JLINK_ReadReg(CFBP)  returns 0x00000000 (0001ms, 0870ms total)
T1738 016:283 JLINK_ReadMem (0x20008004, 0x0004 Bytes, ...) -- CPU_ReadMem(4 bytes @ 0x20008004) -- Data:  00 00 00 00  returns 0x00 (0001ms, 0871ms total)
T1738 016:284 JLINK_ReadMem (0x40009100, 0x021C Bytes, ...) -- CPU_ReadMem(540 bytes @ 0x40009100) -- Data:  01 00 00 00 01 00 00 00 01 00 00 00 01 00 00 00 ...  returns 0x00 (0004ms, 0875ms total)
T1738 016:295 JLINK_ReadMem (0x0000109E, 0x0002 Bytes, ...) -- CPU_ReadMem(64 bytes @ 0x00001080) -- Updating DA cache (64 bytes @ 0x00001080) -- Read from DA cache (2 bytes @ 0x0000109E) -- Data:  1E 48  returns 0x00 (0001ms, 0876ms total)
T1738 016:296 JLINK_ReadMem (0x000010A0, 0x003C Bytes, ...) -- CPU_ReadMem(64 bytes @ 0x000010C0) -- Updating DA cache (64 bytes @ 0x000010C0) -- Read from DA cache (60 bytes @ 0x000010A0) -- Data:  28 40 04 0A 01 20 80 02 84 42 05 DD 01 46 10 48 ...  returns 0x00 (0001ms, 0877ms total)
T29A0 017:252 JLINK_Step() -- Read from DA cache (2 bytes @ 0x000010A4) -- CPU_ReadMem(4 bytes @ 0xE0001004) -- Simulated  returns 0x00 (0002ms, 0879ms total)
T29A0 017:254 JLINK_ReadReg(R15 (PC))  returns 0x000010A6 (0000ms, 0879ms total)
T29A0 017:254 JLINK_ReadReg(XPSR)  returns 0x01000011 (0000ms, 0879ms total)
T29A0 017:254 JLINK_SetBPEx(Addr = 0x00000340, Type = 0xFFFFFFF2)  returns 0x0000000C (0000ms, 0879ms total)
T29A0 017:254 JLINK_SetBPEx(Addr = 0x000012F8, Type = 0xFFFFFFF2)  returns 0x0000000D (0000ms, 0879ms total)
T29A0 017:255 JLINK_SetBPEx(Addr = 0x000012E6, Type = 0xFFFFFFF2)  returns 0x0000000E (0000ms, 0879ms total)
T29A0 017:255 JLINK_SetBPEx(Addr = 0x000012C0, Type = 0xFFFFFFF2)  returns 0x0000000F (0000ms, 0879ms total)
T29A0 017:255 JLINK_SetBPEx(Addr = 0x000010A4, Type = 0xFFFFFFF2)  returns 0x00000010 (0000ms, 0879ms total)
T29A0 017:255 JLINK_Go() -- CPU_WriteMem(4 bytes @ 0xE0001004) (0002ms, 0881ms total)
T29A0 017:357 JLINK_IsHalted() -- CPU_ReadMem(2 bytes @ 0x00000340)  returns TRUE (0006ms, 0887ms total)
T29A0 017:363 JLINK_Halt()  returns 0x00 (0000ms, 0881ms total)
T29A0 017:363 JLINK_IsHalted()  returns TRUE (0000ms, 0881ms total)
T29A0 017:363 JLINK_IsHalted()  returns TRUE (0000ms, 0881ms total)
T29A0 017:363 JLINK_IsHalted()  returns TRUE (0000ms, 0881ms total)
T29A0 017:363 JLINK_ReadReg(R15 (PC))  returns 0x000010A4 (0000ms, 0881ms total)
T29A0 017:363 JLINK_ReadReg(XPSR)  returns 0x41000011 (0000ms, 0881ms total)
T29A0 017:363 JLINK_ClrBPEx(BPHandle = 0x0000000C)  returns 0x00 (0000ms, 0881ms total)
T29A0 017:363 JLINK_ClrBPEx(BPHandle = 0x0000000D)  returns 0x00 (0000ms, 0881ms total)
T29A0 017:363 JLINK_ClrBPEx(BPHandle = 0x0000000E)  returns 0x00 (0000ms, 0881ms total)
T29A0 017:363 JLINK_ClrBPEx(BPHandle = 0x0000000F)  returns 0x00 (0000ms, 0881ms total)
T29A0 017:363 JLINK_ClrBPEx(BPHandle = 0x00000010)  returns 0x00 (0000ms, 0881ms total)
T29A0 017:363 JLINK_ReadMemU32(0xE000ED30, 0x0001 Items, ...) -- CPU_ReadMem(4 bytes @ 0xE000ED30) -- Data:  02 00 00 00  returns 0x01 (0002ms, 0883ms total)
T29A0 017:365 JLINK_ReadMemU32(0xE0001028, 0x0001 Items, ...) -- CPU_ReadMem(4 bytes @ 0xE0001028) -- Data:  00 00 00 00  returns 0x01 (0001ms, 0884ms total)
T29A0 017:366 JLINK_ReadMemU32(0xE0001038, 0x0001 Items, ...) -- CPU_ReadMem(4 bytes @ 0xE0001038) -- Data:  00 00 00 00  returns 0x01 (0001ms, 0885ms total)
T29A0 017:367 JLINK_ReadReg(R0)  returns 0x00000000 (0000ms, 0885ms total)
T29A0 017:367 JLINK_ReadReg(R1)  returns 0x00000220 (0000ms, 0885ms total)
T29A0 017:367 JLINK_ReadReg(R2)  returns 0x00001388 (0000ms, 0885ms total)
T29A0 017:367 JLINK_ReadReg(R3)  returns 0x00001388 (0000ms, 0885ms total)
T29A0 017:367 JLINK_ReadReg(R4)  returns 0x00000000 (0000ms, 0885ms total)
T29A0 017:367 JLINK_ReadReg(R5)  returns 0x00000000 (0000ms, 0885ms total)
T29A0 017:367 JLINK_ReadReg(R6)  returns 0x00000000 (0000ms, 0885ms total)
T29A0 017:367 JLINK_ReadReg(R7)  returns 0x00000000 (0000ms, 0885ms total)
T29A0 017:367 JLINK_ReadReg(R8)  returns 0xFFFFFFFF (0000ms, 0885ms total)
T29A0 017:367 JLINK_ReadReg(R9)  returns 0xFFFFFFFF (0000ms, 0885ms total)
T29A0 017:367 JLINK_ReadReg(R10)  returns 0x00001600 (0000ms, 0885ms total)
T29A0 017:367 JLINK_ReadReg(R11)  returns 0x00001600 (0000ms, 0885ms total)
T29A0 017:367 JLINK_ReadReg(R12)  returns 0xFFFFFFFF (0000ms, 0885ms total)
T29A0 017:367 JLINK_ReadReg(R13 (SP))  returns 0x2000ABF8 (0000ms, 0885ms total)
T29A0 017:367 JLINK_ReadReg(R14)  returns 0x00001091 (0000ms, 0885ms total)
T29A0 017:367 JLINK_ReadReg(R15 (PC))  returns 0x000010A4 (0000ms, 0885ms total)
T29A0 017:367 JLINK_ReadReg(XPSR)  returns 0x41000011 (0000ms, 0885ms total)
T29A0 017:367 JLINK_ReadReg(MSP)  returns 0x2000ABF8 (0000ms, 0885ms total)
T29A0 017:367 JLINK_ReadReg(PSP)  returns 0xFFFFFFFC (0001ms, 0886ms total)
T29A0 017:368 JLINK_ReadReg(CFBP)  returns 0x00000000 (0000ms, 0886ms total)
T1738 017:370 JLINK_ReadMem (0x20008004, 0x0004 Bytes, ...) -- CPU_ReadMem(4 bytes @ 0x20008004) -- Data:  00 00 00 00  returns 0x00 (0001ms, 0887ms total)
T1738 017:371 JLINK_ReadMem (0x40009100, 0x021C Bytes, ...) -- CPU_ReadMem(540 bytes @ 0x40009100) -- Data:  01 00 00 00 01 00 00 00 01 00 00 00 01 00 00 00 ...  returns 0x00 (0005ms, 0892ms total)
T29A0 017:911 JLINK_Step() -- CPU_ReadMem(64 bytes @ 0x00001080) -- Updating DA cache (64 bytes @ 0x00001080) -- Read from DA cache (2 bytes @ 0x000010A4) -- CPU_ReadMem(4 bytes @ 0xE0001004) -- Simulated  returns 0x00 (0004ms, 0896ms total)
T29A0 017:915 JLINK_ReadReg(R15 (PC))  returns 0x000010A6 (0000ms, 0896ms total)
T29A0 017:915 JLINK_ReadReg(XPSR)  returns 0x01000011 (0000ms, 0896ms total)
T29A0 017:915 JLINK_SetBPEx(Addr = 0x00000340, Type = 0xFFFFFFF2)  returns 0x00000011 (0000ms, 0896ms total)
T29A0 017:915 JLINK_SetBPEx(Addr = 0x000012F8, Type = 0xFFFFFFF2)  returns 0x00000012 (0000ms, 0896ms total)
T29A0 017:915 JLINK_SetBPEx(Addr = 0x000012E6, Type = 0xFFFFFFF2)  returns 0x00000013 (0000ms, 0896ms total)
T29A0 017:915 JLINK_SetBPEx(Addr = 0x000012C0, Type = 0xFFFFFFF2)  returns 0x00000014 (0000ms, 0896ms total)
T29A0 017:915 JLINK_SetBPEx(Addr = 0x000010A4, Type = 0xFFFFFFF2)  returns 0x00000015 (0000ms, 0896ms total)
T29A0 017:915 JLINK_Go() -- CPU_WriteMem(4 bytes @ 0xE0001004) (0003ms, 0899ms total)
T29A0 018:018 JLINK_IsHalted() -- CPU_ReadMem(2 bytes @ 0x00000340)  returns TRUE (0005ms, 0904ms total)
T29A0 018:023 JLINK_Halt()  returns 0x00 (0000ms, 0899ms total)
T29A0 018:023 JLINK_IsHalted()  returns TRUE (0000ms, 0899ms total)
T29A0 018:023 JLINK_IsHalted()  returns TRUE (0000ms, 0899ms total)
T29A0 018:023 JLINK_IsHalted()  returns TRUE (0000ms, 0899ms total)
T29A0 018:023 JLINK_ReadReg(R15 (PC))  returns 0x000010A4 (0000ms, 0899ms total)
T29A0 018:023 JLINK_ReadReg(XPSR)  returns 0x41000011 (0000ms, 0899ms total)
T29A0 018:023 JLINK_ClrBPEx(BPHandle = 0x00000011)  returns 0x00 (0000ms, 0899ms total)
T29A0 018:023 JLINK_ClrBPEx(BPHandle = 0x00000012)  returns 0x00 (0000ms, 0899ms total)
T29A0 018:023 JLINK_ClrBPEx(BPHandle = 0x00000013)  returns 0x00 (0000ms, 0899ms total)
T29A0 018:024 JLINK_ClrBPEx(BPHandle = 0x00000014)  returns 0x00 (0000ms, 0900ms total)
T29A0 018:024 JLINK_ClrBPEx(BPHandle = 0x00000015)  returns 0x00 (0000ms, 0900ms total)
T29A0 018:024 JLINK_ReadMemU32(0xE000ED30, 0x0001 Items, ...) -- CPU_ReadMem(4 bytes @ 0xE000ED30) -- Data:  02 00 00 00  returns 0x01 (0001ms, 0901ms total)
T29A0 018:025 JLINK_ReadMemU32(0xE0001028, 0x0001 Items, ...) -- CPU_ReadMem(4 bytes @ 0xE0001028) -- Data:  00 00 00 00  returns 0x01 (0001ms, 0902ms total)
T29A0 018:026 JLINK_ReadMemU32(0xE0001038, 0x0001 Items, ...) -- CPU_ReadMem(4 bytes @ 0xE0001038) -- Data:  00 00 00 00  returns 0x01 (0001ms, 0903ms total)
T29A0 018:027 JLINK_ReadReg(R0)  returns 0x00000000 (0000ms, 0903ms total)
T29A0 018:027 JLINK_ReadReg(R1)  returns 0x00000220 (0000ms, 0903ms total)
T29A0 018:027 JLINK_ReadReg(R2)  returns 0x00001388 (0000ms, 0903ms total)
T29A0 018:027 JLINK_ReadReg(R3)  returns 0x00001388 (0000ms, 0903ms total)
T29A0 018:027 JLINK_ReadReg(R4)  returns 0x00000000 (0001ms, 0904ms total)
T29A0 018:028 JLINK_ReadReg(R5)  returns 0x00000000 (0000ms, 0904ms total)
T29A0 018:028 JLINK_ReadReg(R6)  returns 0x00000000 (0000ms, 0904ms total)
T29A0 018:028 JLINK_ReadReg(R7)  returns 0x00000000 (0000ms, 0904ms total)
T29A0 018:028 JLINK_ReadReg(R8)  returns 0xFFFFFFFF (0000ms, 0904ms total)
T29A0 018:028 JLINK_ReadReg(R9)  returns 0xFFFFFFFF (0000ms, 0904ms total)
T29A0 018:028 JLINK_ReadReg(R10)  returns 0x00001600 (0000ms, 0904ms total)
T29A0 018:028 JLINK_ReadReg(R11)  returns 0x00001600 (0000ms, 0904ms total)
T29A0 018:028 JLINK_ReadReg(R12)  returns 0xFFFFFFFF (0000ms, 0904ms total)
T29A0 018:028 JLINK_ReadReg(R13 (SP))  returns 0x2000ABF8 (0000ms, 0904ms total)
T29A0 018:028 JLINK_ReadReg(R14)  returns 0x00001091 (0000ms, 0904ms total)
T29A0 018:028 JLINK_ReadReg(R15 (PC))  returns 0x000010A4 (0000ms, 0904ms total)
T29A0 018:028 JLINK_ReadReg(XPSR)  returns 0x41000011 (0000ms, 0904ms total)
T29A0 018:028 JLINK_ReadReg(MSP)  returns 0x2000ABF8 (0000ms, 0904ms total)
T29A0 018:028 JLINK_ReadReg(PSP)  returns 0xFFFFFFFC (0000ms, 0904ms total)
T29A0 018:028 JLINK_ReadReg(CFBP)  returns 0x00000000 (0000ms, 0904ms total)
T1738 018:031 JLINK_ReadMem (0x20008004, 0x0004 Bytes, ...) -- CPU_ReadMem(4 bytes @ 0x20008004) -- Data:  00 00 00 00  returns 0x00 (0001ms, 0905ms total)
T1738 018:032 JLINK_ReadMem (0x40009100, 0x021C Bytes, ...) -- CPU_ReadMem(540 bytes @ 0x40009100) -- Data:  01 00 00 00 01 00 00 00 01 00 00 00 01 00 00 00 ...  returns 0x00 (0005ms, 0910ms total)
T29A0 018:306 JLINK_Step() -- CPU_ReadMem(64 bytes @ 0x00001080) -- Updating DA cache (64 bytes @ 0x00001080) -- Read from DA cache (2 bytes @ 0x000010A4) -- CPU_ReadMem(4 bytes @ 0xE0001004) -- Simulated  returns 0x00 (0003ms, 0913ms total)
T29A0 018:309 JLINK_ReadReg(R15 (PC))  returns 0x000010A6 (0000ms, 0913ms total)
T29A0 018:309 JLINK_ReadReg(XPSR)  returns 0x01000011 (0000ms, 0913ms total)
T29A0 018:309 JLINK_SetBPEx(Addr = 0x00000340, Type = 0xFFFFFFF2)  returns 0x00000016 (0000ms, 0913ms total)
T29A0 018:309 JLINK_SetBPEx(Addr = 0x000012F8, Type = 0xFFFFFFF2)  returns 0x00000017 (0000ms, 0913ms total)
T29A0 018:309 JLINK_SetBPEx(Addr = 0x000012E6, Type = 0xFFFFFFF2)  returns 0x00000018 (0000ms, 0913ms total)
T29A0 018:309 JLINK_SetBPEx(Addr = 0x000012C0, Type = 0xFFFFFFF2)  returns 0x00000019 (0000ms, 0913ms total)
T29A0 018:309 JLINK_SetBPEx(Addr = 0x000010A4, Type = 0xFFFFFFF2)  returns 0x0000001A (0000ms, 0913ms total)
T29A0 018:309 JLINK_Go() -- CPU_WriteMem(4 bytes @ 0xE0001004) (0004ms, 0917ms total)
T29A0 018:413 JLINK_IsHalted() -- CPU_ReadMem(2 bytes @ 0x00000340)  returns TRUE (0005ms, 0922ms total)
T29A0 018:418 JLINK_Halt()  returns 0x00 (0000ms, 0917ms total)
T29A0 018:418 JLINK_IsHalted()  returns TRUE (0000ms, 0917ms total)
T29A0 018:418 JLINK_IsHalted()  returns TRUE (0000ms, 0917ms total)
T29A0 018:418 JLINK_IsHalted()  returns TRUE (0000ms, 0917ms total)
T29A0 018:418 JLINK_ReadReg(R15 (PC))  returns 0x000010A4 (0000ms, 0917ms total)
T29A0 018:419 JLINK_ReadReg(XPSR)  returns 0x41000011 (0000ms, 0917ms total)
T29A0 018:419 JLINK_ClrBPEx(BPHandle = 0x00000016)  returns 0x00 (0000ms, 0917ms total)
T29A0 018:419 JLINK_ClrBPEx(BPHandle = 0x00000017)  returns 0x00 (0000ms, 0917ms total)
T29A0 018:419 JLINK_ClrBPEx(BPHandle = 0x00000018)  returns 0x00 (0000ms, 0917ms total)
T29A0 018:419 JLINK_ClrBPEx(BPHandle = 0x00000019)  returns 0x00 (0000ms, 0917ms total)
T29A0 018:419 JLINK_ClrBPEx(BPHandle = 0x0000001A)  returns 0x00 (0000ms, 0917ms total)
T29A0 018:419 JLINK_ReadMemU32(0xE000ED30, 0x0001 Items, ...) -- CPU_ReadMem(4 bytes @ 0xE000ED30) -- Data:  02 00 00 00  returns 0x01 (0002ms, 0919ms total)
T29A0 018:421 JLINK_ReadMemU32(0xE0001028, 0x0001 Items, ...) -- CPU_ReadMem(4 bytes @ 0xE0001028) -- Data:  00 00 00 00  returns 0x01 (0002ms, 0921ms total)
T29A0 018:423 JLINK_ReadMemU32(0xE0001038, 0x0001 Items, ...) -- CPU_ReadMem(4 bytes @ 0xE0001038) -- Data:  00 00 00 00  returns 0x01 (0000ms, 0921ms total)
T29A0 018:424 JLINK_ReadReg(R0)  returns 0x00000000 (0000ms, 0921ms total)
T29A0 018:424 JLINK_ReadReg(R1)  returns 0x00000220 (0000ms, 0921ms total)
T29A0 018:424 JLINK_ReadReg(R2)  returns 0x00001388 (0000ms, 0921ms total)
T29A0 018:424 JLINK_ReadReg(R3)  returns 0x00001388 (0000ms, 0921ms total)
T29A0 018:424 JLINK_ReadReg(R4)  returns 0x00000000 (0000ms, 0921ms total)
T29A0 018:424 JLINK_ReadReg(R5)  returns 0x00000000 (0000ms, 0921ms total)
T29A0 018:424 JLINK_ReadReg(R6)  returns 0x00000000 (0000ms, 0921ms total)
T29A0 018:424 JLINK_ReadReg(R7)  returns 0x00000000 (0000ms, 0921ms total)
T29A0 018:424 JLINK_ReadReg(R8)  returns 0xFFFFFFFF (0000ms, 0921ms total)
T29A0 018:424 JLINK_ReadReg(R9)  returns 0xFFFFFFFF (0000ms, 0921ms total)
T29A0 018:424 JLINK_ReadReg(R10)  returns 0x00001600 (0000ms, 0921ms total)
T29A0 018:424 JLINK_ReadReg(R11)  returns 0x00001600 (0000ms, 0921ms total)
T29A0 018:424 JLINK_ReadReg(R12)  returns 0xFFFFFFFF (0000ms, 0921ms total)
T29A0 018:424 JLINK_ReadReg(R13 (SP))  returns 0x2000ABF8 (0000ms, 0921ms total)
T29A0 018:424 JLINK_ReadReg(R14)  returns 0x00001091 (0000ms, 0921ms total)
T29A0 018:424 JLINK_ReadReg(R15 (PC))  returns 0x000010A4 (0000ms, 0921ms total)
T29A0 018:424 JLINK_ReadReg(XPSR)  returns 0x41000011 (0000ms, 0921ms total)
T29A0 018:424 JLINK_ReadReg(MSP)  returns 0x2000ABF8 (0000ms, 0921ms total)
T29A0 018:424 JLINK_ReadReg(PSP)  returns 0xFFFFFFFC (0001ms, 0922ms total)
T29A0 018:425 JLINK_ReadReg(CFBP)  returns 0x00000000 (0000ms, 0922ms total)
T1738 018:427 JLINK_ReadMem (0x20008004, 0x0004 Bytes, ...) -- CPU_ReadMem(4 bytes @ 0x20008004) -- Data:  00 00 00 00  returns 0x00 (0002ms, 0924ms total)
T1738 018:429 JLINK_ReadMem (0x40009100, 0x021C Bytes, ...) -- CPU_ReadMem(540 bytes @ 0x40009100) -- Data:  01 00 00 00 01 00 00 00 01 00 00 00 01 00 00 00 ...  returns 0x00 (0004ms, 0928ms total)
T29A0 022:704 JLINK_Step() -- CPU_ReadMem(64 bytes @ 0x00001080) -- Updating DA cache (64 bytes @ 0x00001080) -- Read from DA cache (2 bytes @ 0x000010A4) -- CPU_ReadMem(4 bytes @ 0xE0001004) -- Simulated  returns 0x00 (0004ms, 0932ms total)
T29A0 022:708 JLINK_ReadReg(R15 (PC))  returns 0x000010A6 (0000ms, 0932ms total)
T29A0 022:708 JLINK_ReadReg(XPSR)  returns 0x01000011 (0000ms, 0932ms total)
T29A0 022:708 JLINK_SetBPEx(Addr = 0x00000340, Type = 0xFFFFFFF2)  returns 0x0000001B (0000ms, 0932ms total)
T29A0 022:708 JLINK_SetBPEx(Addr = 0x000012F8, Type = 0xFFFFFFF2)  returns 0x0000001C (0000ms, 0932ms total)
T29A0 022:708 JLINK_SetBPEx(Addr = 0x000012E6, Type = 0xFFFFFFF2)  returns 0x0000001D (0000ms, 0932ms total)
T29A0 022:708 JLINK_SetBPEx(Addr = 0x000012C0, Type = 0xFFFFFFF2)  returns 0x0000001E (0000ms, 0932ms total)
T29A0 022:708 JLINK_SetBPEx(Addr = 0x000010A4, Type = 0xFFFFFFF2)  returns 0x0000001F (0000ms, 0932ms total)
T29A0 022:708 JLINK_Go() -- CPU_WriteMem(4 bytes @ 0xE0001004) (0003ms, 0935ms total)
T29A0 022:811 JLINK_IsHalted() -- CPU_ReadMem(2 bytes @ 0x00000340)  returns TRUE (0005ms, 0940ms total)
T29A0 022:816 JLINK_Halt()  returns 0x00 (0000ms, 0935ms total)
T29A0 022:816 JLINK_IsHalted()  returns TRUE (0000ms, 0935ms total)
T29A0 022:816 JLINK_IsHalted()  returns TRUE (0000ms, 0935ms total)
T29A0 022:816 JLINK_IsHalted()  returns TRUE (0000ms, 0935ms total)
T29A0 022:816 JLINK_ReadReg(R15 (PC))  returns 0x000010A4 (0000ms, 0935ms total)
T29A0 022:816 JLINK_ReadReg(XPSR)  returns 0x41000011 (0000ms, 0935ms total)
T29A0 022:816 JLINK_ClrBPEx(BPHandle = 0x0000001B)  returns 0x00 (0000ms, 0935ms total)
T29A0 022:816 JLINK_ClrBPEx(BPHandle = 0x0000001C)  returns 0x00 (0000ms, 0935ms total)
T29A0 022:816 JLINK_ClrBPEx(BPHandle = 0x0000001D)  returns 0x00 (0000ms, 0935ms total)
T29A0 022:816 JLINK_ClrBPEx(BPHandle = 0x0000001E)  returns 0x00 (0000ms, 0935ms total)
T29A0 022:816 JLINK_ClrBPEx(BPHandle = 0x0000001F)  returns 0x00 (0000ms, 0935ms total)
T29A0 022:816 JLINK_ReadMemU32(0xE000ED30, 0x0001 Items, ...) -- CPU_ReadMem(4 bytes @ 0xE000ED30) -- Data:  02 00 00 00  returns 0x01 (0001ms, 0936ms total)
T29A0 022:817 JLINK_ReadMemU32(0xE0001028, 0x0001 Items, ...) -- CPU_ReadMem(4 bytes @ 0xE0001028) -- Data:  00 00 00 00  returns 0x01 (0001ms, 0937ms total)
T29A0 022:818 JLINK_ReadMemU32(0xE0001038, 0x0001 Items, ...) -- CPU_ReadMem(4 bytes @ 0xE0001038) -- Data:  00 00 00 00  returns 0x01 (0001ms, 0938ms total)
T29A0 022:819 JLINK_ReadReg(R0)  returns 0x00000000 (0000ms, 0938ms total)
T29A0 022:819 JLINK_ReadReg(R1)  returns 0x00000220 (0000ms, 0938ms total)
T29A0 022:819 JLINK_ReadReg(R2)  returns 0x00001388 (0000ms, 0938ms total)
T29A0 022:819 JLINK_ReadReg(R3)  returns 0x00001388 (0000ms, 0938ms total)
T29A0 022:819 JLINK_ReadReg(R4)  returns 0x00000000 (0000ms, 0938ms total)
T29A0 022:819 JLINK_ReadReg(R5)  returns 0x00000000 (0000ms, 0938ms total)
T29A0 022:819 JLINK_ReadReg(R6)  returns 0x00000000 (0000ms, 0938ms total)
T29A0 022:819 JLINK_ReadReg(R7)  returns 0x00000000 (0000ms, 0938ms total)
T29A0 022:819 JLINK_ReadReg(R8)  returns 0xFFFFFFFF (0000ms, 0938ms total)
T29A0 022:819 JLINK_ReadReg(R9)  returns 0xFFFFFFFF (0000ms, 0938ms total)
T29A0 022:819 JLINK_ReadReg(R10)  returns 0x00001600 (0000ms, 0938ms total)
T29A0 022:819 JLINK_ReadReg(R11)  returns 0x00001600 (0000ms, 0938ms total)
T29A0 022:819 JLINK_ReadReg(R12)  returns 0xFFFFFFFF (0000ms, 0938ms total)
T29A0 022:819 JLINK_ReadReg(R13 (SP))  returns 0x2000ABF8 (0000ms, 0938ms total)
T29A0 022:819 JLINK_ReadReg(R14)  returns 0x00001091 (0000ms, 0938ms total)
T29A0 022:819 JLINK_ReadReg(R15 (PC))  returns 0x000010A4 (0000ms, 0938ms total)
T29A0 022:819 JLINK_ReadReg(XPSR)  returns 0x41000011 (0000ms, 0938ms total)
T29A0 022:819 JLINK_ReadReg(MSP)  returns 0x2000ABF8 (0000ms, 0938ms total)
T29A0 022:819 JLINK_ReadReg(PSP)  returns 0xFFFFFFFC (0000ms, 0938ms total)
T29A0 022:819 JLINK_ReadReg(CFBP)  returns 0x00000000 (0000ms, 0938ms total)
T1738 022:820 JLINK_ReadMem (0x20008004, 0x0004 Bytes, ...) -- CPU_ReadMem(4 bytes @ 0x20008004) -- Data:  00 00 00 00  returns 0x00 (0001ms, 0939ms total)
T1738 022:821 JLINK_ReadMem (0x40009100, 0x021C Bytes, ...) -- CPU_ReadMem(540 bytes @ 0x40009100) -- Data:  01 00 00 00 01 00 00 00 01 00 00 00 01 00 00 00 ...  returns 0x00 (0004ms, 0943ms total)
T29A0 023:062 JLINK_Step() -- CPU_ReadMem(64 bytes @ 0x00001080) -- Updating DA cache (64 bytes @ 0x00001080) -- Read from DA cache (2 bytes @ 0x000010A4) -- CPU_ReadMem(4 bytes @ 0xE0001004) -- Simulated  returns 0x00 (0003ms, 0946ms total)
T29A0 023:065 JLINK_ReadReg(R15 (PC))  returns 0x000010A6 (0000ms, 0946ms total)
T29A0 023:065 JLINK_ReadReg(XPSR)  returns 0x01000011 (0000ms, 0946ms total)
T29A0 023:065 JLINK_SetBPEx(Addr = 0x00000340, Type = 0xFFFFFFF2)  returns 0x00000020 (0000ms, 0946ms total)
T29A0 023:065 JLINK_SetBPEx(Addr = 0x000012F8, Type = 0xFFFFFFF2)  returns 0x00000021 (0000ms, 0946ms total)
T29A0 023:065 JLINK_SetBPEx(Addr = 0x000012E6, Type = 0xFFFFFFF2)  returns 0x00000022 (0000ms, 0946ms total)
T29A0 023:065 JLINK_SetBPEx(Addr = 0x000012C0, Type = 0xFFFFFFF2)  returns 0x00000023 (0000ms, 0946ms total)
T29A0 023:065 JLINK_SetBPEx(Addr = 0x000010A4, Type = 0xFFFFFFF2)  returns 0x00000024 (0000ms, 0946ms total)
T29A0 023:065 JLINK_Go() -- CPU_WriteMem(4 bytes @ 0xE0001004) (0003ms, 0949ms total)
T29A0 023:168 JLINK_IsHalted() -- CPU_ReadMem(2 bytes @ 0x00000340)  returns TRUE (0005ms, 0954ms total)
T29A0 023:173 JLINK_Halt()  returns 0x00 (0000ms, 0949ms total)
T29A0 023:173 JLINK_IsHalted()  returns TRUE (0000ms, 0949ms total)
T29A0 023:173 JLINK_IsHalted()  returns TRUE (0000ms, 0949ms total)
T29A0 023:173 JLINK_IsHalted()  returns TRUE (0000ms, 0949ms total)
T29A0 023:173 JLINK_ReadReg(R15 (PC))  returns 0x000010A4 (0000ms, 0949ms total)
T29A0 023:173 JLINK_ReadReg(XPSR)  returns 0x41000011 (0000ms, 0949ms total)
T29A0 023:173 JLINK_ClrBPEx(BPHandle = 0x00000020)  returns 0x00 (0000ms, 0949ms total)
T29A0 023:173 JLINK_ClrBPEx(BPHandle = 0x00000021)  returns 0x00 (0000ms, 0949ms total)
T29A0 023:173 JLINK_ClrBPEx(BPHandle = 0x00000022)  returns 0x00 (0000ms, 0949ms total)
T29A0 023:173 JLINK_ClrBPEx(BPHandle = 0x00000023)  returns 0x00 (0000ms, 0949ms total)
T29A0 023:173 JLINK_ClrBPEx(BPHandle = 0x00000024)  returns 0x00 (0000ms, 0949ms total)
T29A0 023:173 JLINK_ReadMemU32(0xE000ED30, 0x0001 Items, ...) -- CPU_ReadMem(4 bytes @ 0xE000ED30) -- Data:  02 00 00 00  returns 0x01 (0001ms, 0950ms total)
T29A0 023:174 JLINK_ReadMemU32(0xE0001028, 0x0001 Items, ...) -- CPU_ReadMem(4 bytes @ 0xE0001028) -- Data:  00 00 00 00  returns 0x01 (0001ms, 0951ms total)
T29A0 023:175 JLINK_ReadMemU32(0xE0001038, 0x0001 Items, ...) -- CPU_ReadMem(4 bytes @ 0xE0001038) -- Data:  00 00 00 00  returns 0x01 (0001ms, 0952ms total)
T29A0 023:176 JLINK_ReadReg(R0)  returns 0x00000000 (0000ms, 0952ms total)
T29A0 023:176 JLINK_ReadReg(R1)  returns 0x00000220 (0000ms, 0952ms total)
T29A0 023:176 JLINK_ReadReg(R2)  returns 0x00001388 (0000ms, 0952ms total)
T29A0 023:176 JLINK_ReadReg(R3)  returns 0x00001388 (0000ms, 0952ms total)
T29A0 023:176 JLINK_ReadReg(R4)  returns 0x00000000 (0000ms, 0952ms total)
T29A0 023:176 JLINK_ReadReg(R5)  returns 0x00000000 (0000ms, 0952ms total)
T29A0 023:176 JLINK_ReadReg(R6)  returns 0x00000000 (0000ms, 0952ms total)
T29A0 023:176 JLINK_ReadReg(R7)  returns 0x00000000 (0000ms, 0952ms total)
T29A0 023:176 JLINK_ReadReg(R8)  returns 0xFFFFFFFF (0000ms, 0952ms total)
T29A0 023:176 JLINK_ReadReg(R9)  returns 0xFFFFFFFF (0000ms, 0952ms total)
T29A0 023:176 JLINK_ReadReg(R10)  returns 0x00001600 (0000ms, 0952ms total)
T29A0 023:176 JLINK_ReadReg(R11)  returns 0x00001600 (0000ms, 0952ms total)
T29A0 023:176 JLINK_ReadReg(R12)  returns 0xFFFFFFFF (0001ms, 0953ms total)
T29A0 023:177 JLINK_ReadReg(R13 (SP))  returns 0x2000ABF8 (0000ms, 0953ms total)
T29A0 023:177 JLINK_ReadReg(R14)  returns 0x00001091 (0000ms, 0953ms total)
T29A0 023:177 JLINK_ReadReg(R15 (PC))  returns 0x000010A4 (0000ms, 0953ms total)
T29A0 023:177 JLINK_ReadReg(XPSR)  returns 0x41000011 (0000ms, 0953ms total)
T29A0 023:177 JLINK_ReadReg(MSP)  returns 0x2000ABF8 (0000ms, 0953ms total)
T29A0 023:177 JLINK_ReadReg(PSP)  returns 0xFFFFFFFC (0000ms, 0953ms total)
T29A0 023:177 JLINK_ReadReg(CFBP)  returns 0x00000000 (0000ms, 0953ms total)
T1738 023:177 JLINK_ReadMem (0x20008004, 0x0004 Bytes, ...) -- CPU_ReadMem(4 bytes @ 0x20008004) -- Data:  00 00 00 00  returns 0x00 (0002ms, 0955ms total)
T1738 023:179 JLINK_ReadMem (0x40009100, 0x021C Bytes, ...) -- CPU_ReadMem(540 bytes @ 0x40009100) -- Data:  01 00 00 00 01 00 00 00 01 00 00 00 01 00 00 00 ...  returns 0x00 (0004ms, 0959ms total)
T29A0 023:398 JLINK_Step() -- CPU_ReadMem(64 bytes @ 0x00001080) -- Updating DA cache (64 bytes @ 0x00001080) -- Read from DA cache (2 bytes @ 0x000010A4) -- CPU_ReadMem(4 bytes @ 0xE0001004) -- Simulated  returns 0x00 (0003ms, 0962ms total)
T29A0 023:401 JLINK_ReadReg(R15 (PC))  returns 0x000010A6 (0000ms, 0962ms total)
T29A0 023:401 JLINK_ReadReg(XPSR)  returns 0x01000011 (0000ms, 0962ms total)
T29A0 023:401 JLINK_SetBPEx(Addr = 0x00000340, Type = 0xFFFFFFF2)  returns 0x00000025 (0000ms, 0962ms total)
T29A0 023:401 JLINK_SetBPEx(Addr = 0x000012F8, Type = 0xFFFFFFF2)  returns 0x00000026 (0000ms, 0962ms total)
T29A0 023:401 JLINK_SetBPEx(Addr = 0x000012E6, Type = 0xFFFFFFF2)  returns 0x00000027 (0000ms, 0962ms total)
T29A0 023:401 JLINK_SetBPEx(Addr = 0x000012C0, Type = 0xFFFFFFF2)  returns 0x00000028 (0000ms, 0962ms total)
T29A0 023:401 JLINK_SetBPEx(Addr = 0x000010A4, Type = 0xFFFFFFF2)  returns 0x00000029 (0000ms, 0962ms total)
T29A0 023:401 JLINK_Go() -- CPU_WriteMem(4 bytes @ 0xE0001004) (0003ms, 0965ms total)
T29A0 023:504 JLINK_IsHalted() -- CPU_ReadMem(2 bytes @ 0x00000340)  returns TRUE (0005ms, 0970ms total)
T29A0 023:509 JLINK_Halt()  returns 0x00 (0000ms, 0965ms total)
T29A0 023:509 JLINK_IsHalted()  returns TRUE (0000ms, 0965ms total)
